rm -f results.xml
"make" -f Makefile results.xml
make[1]: Entering directory '/home/asic/workspace/pcie_vga_asic/cocotests/test_vga_driver'
rm -f results.xml
MODULE=test_vga_driver TESTCASE= TOPLEVEL=vga_driver TOPLEVEL_LANG=verilog	 \
         /foss/tools/bin/vvp -M /usr/local/lib/python3.12/dist-packages/cocotb/libs -m libcocotbvpi_icarus   sim_build/sim.vvp -fst 
     -.--ns INFO     gpi                                ..mbed/gpi_embed.cpp:108  in set_program_name_in_venv        Using Python virtual environment interpreter at /home/asic/workspace/pcie_vga_asic/.venv/bin/python
     -.--ns INFO     gpi                                ../gpi/GpiCommon.cpp:101  in gpi_print_registered_impl       VPI registered
     0.00ns INFO     cocotb                             Running on Icarus Verilog version 13.0 (devel)
     0.00ns INFO     cocotb                             Running tests with cocotb v1.9.2 from /usr/local/lib/python3.12/dist-packages/cocotb
     0.00ns INFO     cocotb                             Seeding Python random module with 1749087109
     0.00ns INFO     cocotb.regression                  Found test test_vga_driver.test_prefetch_line
     0.00ns INFO     cocotb.regression                  Found test test_vga_driver.test_correct_addr
     0.00ns INFO     cocotb.regression                  Found test test_vga_driver.test_correct_lut
     0.00ns INFO     cocotb.regression                  Found test test_vga_driver.test_fb_write_req
     0.00ns INFO     cocotb.regression                  Found test test_vga_driver.test_csr_write_req
     0.00ns INFO     cocotb.regression                  Found test test_vga_driver.test_fill_write_req
     0.00ns INFO     cocotb.regression                  Found test test_vga_driver.test_fb_read_req
     0.00ns INFO     cocotb.regression                  Found test test_vga_driver.test_csr_read_req
     0.00ns INFO     cocotb.regression                  running test_prefetch_line (1/8)
     0.00ns INFO     cocotb.vga_driver.s_axi            AXI lite master (write)
     0.00ns INFO     cocotb.vga_driver.s_axi            cocotbext-axi version 0.1.24
     0.00ns INFO     cocotb.vga_driver.s_axi            Copyright (c) 2020 Alex Forencich
     0.00ns INFO     cocotb.vga_driver.s_axi            https://github.com/alexforencich/cocotbext-axi
     0.00ns INFO     cocotb.vga_driver.s_axi            Reset de-asserted
     0.00ns INFO     cocotb.vga_driver.s_axi            Reset de-asserted
     0.00ns INFO     cocotb.vga_driver.s_axi            Reset de-asserted
     0.00ns INFO     cocotb.vga_driver.s_axi            AXI lite master configuration:
     0.00ns INFO     cocotb.vga_driver.s_axi              Address width: 32 bits
     0.00ns INFO     cocotb.vga_driver.s_axi              Byte size: 8 bits
     0.00ns INFO     cocotb.vga_driver.s_axi              Data width: 32 bits (4 bytes)
     0.00ns INFO     cocotb.vga_driver.s_axi            AXI lite master signals:
     0.00ns INFO     cocotb.vga_driver.s_axi              awaddr width: 32 bits
     0.00ns INFO     cocotb.vga_driver.s_axi              awprot: not present
     0.00ns INFO     cocotb.vga_driver.s_axi              awready width: 1 bits
     0.00ns INFO     cocotb.vga_driver.s_axi              awvalid width: 1 bits
     0.00ns INFO     cocotb.vga_driver.s_axi              wdata width: 32 bits
     0.00ns INFO     cocotb.vga_driver.s_axi              wready width: 1 bits
     0.00ns INFO     cocotb.vga_driver.s_axi              wstrb width: 4 bits
     0.00ns INFO     cocotb.vga_driver.s_axi              wvalid width: 1 bits
     0.00ns INFO     cocotb.vga_driver.s_axi              bready width: 1 bits
     0.00ns INFO     cocotb.vga_driver.s_axi              bresp width: 2 bits
     0.00ns INFO     cocotb.vga_driver.s_axi              bvalid width: 1 bits
     0.00ns INFO     cocotb.vga_driver.s_axi            Reset de-asserted
     0.00ns INFO     cocotb.vga_driver.s_axi            AXI lite master (read)
     0.00ns INFO     cocotb.vga_driver.s_axi            cocotbext-axi version 0.1.24
     0.00ns INFO     cocotb.vga_driver.s_axi            Copyright (c) 2020 Alex Forencich
     0.00ns INFO     cocotb.vga_driver.s_axi            https://github.com/alexforencich/cocotbext-axi
     0.00ns INFO     cocotb.vga_driver.s_axi            Reset de-asserted
     0.00ns INFO     cocotb.vga_driver.s_axi            Reset de-asserted
     0.00ns INFO     cocotb.vga_driver.s_axi            AXI lite master configuration:
     0.00ns INFO     cocotb.vga_driver.s_axi              Address width: 32 bits
     0.00ns INFO     cocotb.vga_driver.s_axi              Byte size: 8 bits
     0.00ns INFO     cocotb.vga_driver.s_axi              Data width: 32 bits (4 bytes)
     0.00ns INFO     cocotb.vga_driver.s_axi            AXI lite master signals:
     0.00ns INFO     cocotb.vga_driver.s_axi              araddr width: 32 bits
     0.00ns INFO     cocotb.vga_driver.s_axi              arprot: not present
     0.00ns INFO     cocotb.vga_driver.s_axi              arready width: 1 bits
     0.00ns INFO     cocotb.vga_driver.s_axi              arvalid width: 1 bits
     0.00ns INFO     cocotb.vga_driver.s_axi              rdata width: 32 bits
     0.00ns INFO     cocotb.vga_driver.s_axi              rready width: 1 bits
     0.00ns INFO     cocotb.vga_driver.s_axi              rresp width: 2 bits
     0.00ns INFO     cocotb.vga_driver.s_axi              rvalid width: 1 bits
     0.00ns INFO     cocotb.vga_driver.s_axi            Reset de-asserted
15376160.00ns INFO     cocotb.regression                  test_prefetch_line passed
15376160.00ns INFO     cocotb.regression                  running test_correct_addr (2/8)
15376160.00ns INFO     cocotb.vga_driver.s_axi            AXI lite master (write)
15376160.00ns INFO     cocotb.vga_driver.s_axi            cocotbext-axi version 0.1.24
15376160.00ns INFO     cocotb.vga_driver.s_axi            Copyright (c) 2020 Alex Forencich
15376160.00ns INFO     cocotb.vga_driver.s_axi            https://github.com/alexforencich/cocotbext-axi
15376160.00ns INFO     cocotb.vga_driver.s_axi            Reset de-asserted
15376160.00ns INFO     cocotb.vga_driver.s_axi            Reset de-asserted
15376160.00ns INFO     cocotb.vga_driver.s_axi            Reset de-asserted
15376160.00ns INFO     cocotb.vga_driver.s_axi            AXI lite master configuration:
15376160.00ns INFO     cocotb.vga_driver.s_axi              Address width: 32 bits
15376160.00ns INFO     cocotb.vga_driver.s_axi              Byte size: 8 bits
15376160.00ns INFO     cocotb.vga_driver.s_axi              Data width: 32 bits (4 bytes)
15376160.00ns INFO     cocotb.vga_driver.s_axi            AXI lite master signals:
15376160.00ns INFO     cocotb.vga_driver.s_axi              awaddr width: 32 bits
15376160.00ns INFO     cocotb.vga_driver.s_axi              awprot: not present
15376160.00ns INFO     cocotb.vga_driver.s_axi              awready width: 1 bits
15376160.00ns INFO     cocotb.vga_driver.s_axi              awvalid width: 1 bits
15376160.00ns INFO     cocotb.vga_driver.s_axi              wdata width: 32 bits
15376160.00ns INFO     cocotb.vga_driver.s_axi              wready width: 1 bits
15376160.00ns INFO     cocotb.vga_driver.s_axi              wstrb width: 4 bits
15376160.00ns INFO     cocotb.vga_driver.s_axi              wvalid width: 1 bits
15376160.00ns INFO     cocotb.vga_driver.s_axi              bready width: 1 bits
15376160.00ns INFO     cocotb.vga_driver.s_axi              bresp width: 2 bits
15376160.00ns INFO     cocotb.vga_driver.s_axi              bvalid width: 1 bits
15376160.00ns INFO     cocotb.vga_driver.s_axi            Reset de-asserted
15376160.00ns INFO     cocotb.vga_driver.s_axi            AXI lite master (read)
15376160.00ns INFO     cocotb.vga_driver.s_axi            cocotbext-axi version 0.1.24
15376160.00ns INFO     cocotb.vga_driver.s_axi            Copyright (c) 2020 Alex Forencich
15376160.00ns INFO     cocotb.vga_driver.s_axi            https://github.com/alexforencich/cocotbext-axi
15376160.00ns INFO     cocotb.vga_driver.s_axi            Reset de-asserted
15376160.00ns INFO     cocotb.vga_driver.s_axi            Reset de-asserted
15376160.00ns INFO     cocotb.vga_driver.s_axi            AXI lite master configuration:
15376160.00ns INFO     cocotb.vga_driver.s_axi              Address width: 32 bits
15376160.00ns INFO     cocotb.vga_driver.s_axi              Byte size: 8 bits
15376160.00ns INFO     cocotb.vga_driver.s_axi              Data width: 32 bits (4 bytes)
15376160.00ns INFO     cocotb.vga_driver.s_axi            AXI lite master signals:
15376160.00ns INFO     cocotb.vga_driver.s_axi              araddr width: 32 bits
15376160.00ns INFO     cocotb.vga_driver.s_axi              arprot: not present
15376160.00ns INFO     cocotb.vga_driver.s_axi              arready width: 1 bits
15376160.00ns INFO     cocotb.vga_driver.s_axi              arvalid width: 1 bits
15376160.00ns INFO     cocotb.vga_driver.s_axi              rdata width: 32 bits
15376160.00ns INFO     cocotb.vga_driver.s_axi              rready width: 1 bits
15376160.00ns INFO     cocotb.vga_driver.s_axi              rresp width: 2 bits
15376160.00ns INFO     cocotb.vga_driver.s_axi              rvalid width: 1 bits
15376160.00ns INFO     cocotb.vga_driver.s_axi            Reset de-asserted
15376160.00ns INFO     cocotb.vga_driver.s_axi            Reset asserted
15376160.00ns INFO     cocotb.vga_driver.s_axi            Reset asserted
15376160.00ns INFO     cocotb.vga_driver.s_axi            Reset asserted
15376160.00ns INFO     cocotb.vga_driver.s_axi            Reset asserted
15376160.00ns INFO     cocotb.vga_driver.s_axi            Reset asserted
15376160.00ns INFO     cocotb.vga_driver.s_axi            Reset asserted
15376160.00ns INFO     cocotb.vga_driver.s_axi            Reset asserted
15376280.00ns INFO     cocotb.vga_driver.s_axi            Reset de-asserted
15376280.00ns INFO     cocotb.vga_driver.s_axi            Reset de-asserted
15376280.00ns INFO     cocotb.vga_driver.s_axi            Reset de-asserted
15376280.00ns INFO     cocotb.vga_driver.s_axi            Reset de-asserted
15376280.00ns INFO     cocotb.vga_driver.s_axi            Reset de-asserted
15376280.00ns INFO     cocotb.vga_driver.s_axi            Reset de-asserted
15376280.00ns INFO     cocotb.vga_driver.s_axi            Reset de-asserted
32176340.00ns INFO     cocotb.regression                  test_correct_addr passed
32176340.00ns INFO     cocotb.regression                  running test_correct_lut (3/8)
32176340.00ns INFO     cocotb.vga_driver.s_axi            AXI lite master (write)
32176340.00ns INFO     cocotb.vga_driver.s_axi            cocotbext-axi version 0.1.24
32176340.00ns INFO     cocotb.vga_driver.s_axi            Copyright (c) 2020 Alex Forencich
32176340.00ns INFO     cocotb.vga_driver.s_axi            https://github.com/alexforencich/cocotbext-axi
32176340.00ns INFO     cocotb.vga_driver.s_axi            Reset de-asserted
32176340.00ns INFO     cocotb.vga_driver.s_axi            Reset de-asserted
32176340.00ns INFO     cocotb.vga_driver.s_axi            Reset de-asserted
32176340.00ns INFO     cocotb.vga_driver.s_axi            AXI lite master configuration:
32176340.00ns INFO     cocotb.vga_driver.s_axi              Address width: 32 bits
32176340.00ns INFO     cocotb.vga_driver.s_axi              Byte size: 8 bits
32176340.00ns INFO     cocotb.vga_driver.s_axi              Data width: 32 bits (4 bytes)
32176340.00ns INFO     cocotb.vga_driver.s_axi            AXI lite master signals:
32176340.00ns INFO     cocotb.vga_driver.s_axi              awaddr width: 32 bits
32176340.00ns INFO     cocotb.vga_driver.s_axi              awprot: not present
32176340.00ns INFO     cocotb.vga_driver.s_axi              awready width: 1 bits
32176340.00ns INFO     cocotb.vga_driver.s_axi              awvalid width: 1 bits
32176340.00ns INFO     cocotb.vga_driver.s_axi              wdata width: 32 bits
32176340.00ns INFO     cocotb.vga_driver.s_axi              wready width: 1 bits
32176340.00ns INFO     cocotb.vga_driver.s_axi              wstrb width: 4 bits
32176340.00ns INFO     cocotb.vga_driver.s_axi              wvalid width: 1 bits
32176340.00ns INFO     cocotb.vga_driver.s_axi              bready width: 1 bits
32176340.00ns INFO     cocotb.vga_driver.s_axi              bresp width: 2 bits
32176340.00ns INFO     cocotb.vga_driver.s_axi              bvalid width: 1 bits
32176340.00ns INFO     cocotb.vga_driver.s_axi            Reset de-asserted
32176340.00ns INFO     cocotb.vga_driver.s_axi            AXI lite master (read)
32176340.00ns INFO     cocotb.vga_driver.s_axi            cocotbext-axi version 0.1.24
32176340.00ns INFO     cocotb.vga_driver.s_axi            Copyright (c) 2020 Alex Forencich
32176340.00ns INFO     cocotb.vga_driver.s_axi            https://github.com/alexforencich/cocotbext-axi
32176340.00ns INFO     cocotb.vga_driver.s_axi            Reset de-asserted
32176340.00ns INFO     cocotb.vga_driver.s_axi            Reset de-asserted
32176340.00ns INFO     cocotb.vga_driver.s_axi            AXI lite master configuration:
32176340.00ns INFO     cocotb.vga_driver.s_axi              Address width: 32 bits
32176340.00ns INFO     cocotb.vga_driver.s_axi              Byte size: 8 bits
32176340.00ns INFO     cocotb.vga_driver.s_axi              Data width: 32 bits (4 bytes)
32176340.00ns INFO     cocotb.vga_driver.s_axi            AXI lite master signals:
32176340.00ns INFO     cocotb.vga_driver.s_axi              araddr width: 32 bits
32176340.00ns INFO     cocotb.vga_driver.s_axi              arprot: not present
32176340.00ns INFO     cocotb.vga_driver.s_axi              arready width: 1 bits
32176340.00ns INFO     cocotb.vga_driver.s_axi              arvalid width: 1 bits
32176340.00ns INFO     cocotb.vga_driver.s_axi              rdata width: 32 bits
32176340.00ns INFO     cocotb.vga_driver.s_axi              rready width: 1 bits
32176340.00ns INFO     cocotb.vga_driver.s_axi              rresp width: 2 bits
32176340.00ns INFO     cocotb.vga_driver.s_axi              rvalid width: 1 bits
32176340.00ns INFO     cocotb.vga_driver.s_axi            Reset de-asserted
32176340.00ns INFO     cocotb.vga_driver.s_axi            Reset asserted
32176340.00ns INFO     cocotb.vga_driver.s_axi            Reset asserted
32176340.00ns INFO     cocotb.vga_driver.s_axi            Reset asserted
32176340.00ns INFO     cocotb.vga_driver.s_axi            Reset asserted
32176340.00ns INFO     cocotb.vga_driver.s_axi            Reset asserted
32176340.00ns INFO     cocotb.vga_driver.s_axi            Reset asserted
32176340.00ns INFO     cocotb.vga_driver.s_axi            Reset asserted
32176420.00ns INFO     cocotb.vga_driver.s_axi            Reset de-asserted
32176420.00ns INFO     cocotb.vga_driver.s_axi            Reset de-asserted
32176420.00ns INFO     cocotb.vga_driver.s_axi            Reset de-asserted
32176420.00ns INFO     cocotb.vga_driver.s_axi            Reset de-asserted
32176420.00ns INFO     cocotb.vga_driver.s_axi            Reset de-asserted
32176420.00ns INFO     cocotb.vga_driver.s_axi            Reset de-asserted
32176420.00ns INFO     cocotb.vga_driver.s_axi            Reset de-asserted
47536440.00ns INFO     cocotb.regression                  test_correct_lut passed
47536440.00ns INFO     cocotb.regression                  running test_fb_write_req (4/8)
47536440.00ns INFO     cocotb.vga_driver.s_axi            AXI lite master (write)
47536440.00ns INFO     cocotb.vga_driver.s_axi            cocotbext-axi version 0.1.24
47536440.00ns INFO     cocotb.vga_driver.s_axi            Copyright (c) 2020 Alex Forencich
47536440.00ns INFO     cocotb.vga_driver.s_axi            https://github.com/alexforencich/cocotbext-axi
47536440.00ns INFO     cocotb.vga_driver.s_axi            Reset de-asserted
47536440.00ns INFO     cocotb.vga_driver.s_axi            Reset de-asserted
47536440.00ns INFO     cocotb.vga_driver.s_axi            Reset de-asserted
47536440.00ns INFO     cocotb.vga_driver.s_axi            AXI lite master configuration:
47536440.00ns INFO     cocotb.vga_driver.s_axi              Address width: 32 bits
47536440.00ns INFO     cocotb.vga_driver.s_axi              Byte size: 8 bits
47536440.00ns INFO     cocotb.vga_driver.s_axi              Data width: 32 bits (4 bytes)
47536440.00ns INFO     cocotb.vga_driver.s_axi            AXI lite master signals:
47536440.00ns INFO     cocotb.vga_driver.s_axi              awaddr width: 32 bits
47536440.00ns INFO     cocotb.vga_driver.s_axi              awprot: not present
47536440.00ns INFO     cocotb.vga_driver.s_axi              awready width: 1 bits
47536440.00ns INFO     cocotb.vga_driver.s_axi              awvalid width: 1 bits
47536440.00ns INFO     cocotb.vga_driver.s_axi              wdata width: 32 bits
47536440.00ns INFO     cocotb.vga_driver.s_axi              wready width: 1 bits
47536440.00ns INFO     cocotb.vga_driver.s_axi              wstrb width: 4 bits
47536440.00ns INFO     cocotb.vga_driver.s_axi              wvalid width: 1 bits
47536440.00ns INFO     cocotb.vga_driver.s_axi              bready width: 1 bits
47536440.00ns INFO     cocotb.vga_driver.s_axi              bresp width: 2 bits
47536440.00ns INFO     cocotb.vga_driver.s_axi              bvalid width: 1 bits
47536440.00ns INFO     cocotb.vga_driver.s_axi            Reset de-asserted
47536440.00ns INFO     cocotb.vga_driver.s_axi            AXI lite master (read)
47536440.00ns INFO     cocotb.vga_driver.s_axi            cocotbext-axi version 0.1.24
47536440.00ns INFO     cocotb.vga_driver.s_axi            Copyright (c) 2020 Alex Forencich
47536440.00ns INFO     cocotb.vga_driver.s_axi            https://github.com/alexforencich/cocotbext-axi
47536440.00ns INFO     cocotb.vga_driver.s_axi            Reset de-asserted
47536440.00ns INFO     cocotb.vga_driver.s_axi            Reset de-asserted
47536440.00ns INFO     cocotb.vga_driver.s_axi            AXI lite master configuration:
47536440.00ns INFO     cocotb.vga_driver.s_axi              Address width: 32 bits
47536440.00ns INFO     cocotb.vga_driver.s_axi              Byte size: 8 bits
47536440.00ns INFO     cocotb.vga_driver.s_axi              Data width: 32 bits (4 bytes)
47536440.00ns INFO     cocotb.vga_driver.s_axi            AXI lite master signals:
47536440.00ns INFO     cocotb.vga_driver.s_axi              araddr width: 32 bits
47536440.00ns INFO     cocotb.vga_driver.s_axi              arprot: not present
47536440.00ns INFO     cocotb.vga_driver.s_axi              arready width: 1 bits
47536440.00ns INFO     cocotb.vga_driver.s_axi              arvalid width: 1 bits
47536440.00ns INFO     cocotb.vga_driver.s_axi              rdata width: 32 bits
47536440.00ns INFO     cocotb.vga_driver.s_axi              rready width: 1 bits
47536440.00ns INFO     cocotb.vga_driver.s_axi              rresp width: 2 bits
47536440.00ns INFO     cocotb.vga_driver.s_axi              rvalid width: 1 bits
47536440.00ns INFO     cocotb.vga_driver.s_axi            Reset de-asserted
47536440.00ns INFO     cocotb.vga_driver.s_axi            Reset asserted
47536440.00ns INFO     cocotb.vga_driver.s_axi            Reset asserted
47536440.00ns INFO     cocotb.vga_driver.s_axi            Reset asserted
47536440.00ns INFO     cocotb.vga_driver.s_axi            Reset asserted
47536440.00ns INFO     cocotb.vga_driver.s_axi            Reset asserted
47536440.00ns INFO     cocotb.vga_driver.s_axi            Reset asserted
47536440.00ns INFO     cocotb.vga_driver.s_axi            Reset asserted
47536560.00ns INFO     cocotb.vga_driver.s_axi            Reset de-asserted
47536560.00ns INFO     cocotb.vga_driver.s_axi            Reset de-asserted
47536560.00ns INFO     cocotb.vga_driver.s_axi            Reset de-asserted
47536560.00ns INFO     cocotb.vga_driver.s_axi            Reset de-asserted
47536560.00ns INFO     cocotb.vga_driver.s_axi            Reset de-asserted
47536560.00ns INFO     cocotb.vga_driver.s_axi            Reset de-asserted
47536560.00ns INFO     cocotb.vga_driver.s_axi            Reset de-asserted
47536660.00ns INFO     cocotb.vga_driver.s_axi            Write start addr: 0x11000004 prot: 2 data: a5
47536685.00ns INFO     cocotb.vga_driver.s_axi            Write complete addr: 0x11000004 prot: 2 resp: 0 length: 1
47537120.00ns INFO     cocotb.regression                  test_fb_write_req passed
47537120.00ns INFO     cocotb.regression                  running test_csr_write_req (5/8)
47537120.00ns INFO     cocotb.vga_driver.s_axi            AXI lite master (write)
47537120.00ns INFO     cocotb.vga_driver.s_axi            cocotbext-axi version 0.1.24
47537120.00ns INFO     cocotb.vga_driver.s_axi            Copyright (c) 2020 Alex Forencich
47537120.00ns INFO     cocotb.vga_driver.s_axi            https://github.com/alexforencich/cocotbext-axi
47537120.00ns INFO     cocotb.vga_driver.s_axi            Reset de-asserted
47537120.00ns INFO     cocotb.vga_driver.s_axi            Reset de-asserted
47537120.00ns INFO     cocotb.vga_driver.s_axi            Reset de-asserted
47537120.00ns INFO     cocotb.vga_driver.s_axi            AXI lite master configuration:
47537120.00ns INFO     cocotb.vga_driver.s_axi              Address width: 32 bits
47537120.00ns INFO     cocotb.vga_driver.s_axi              Byte size: 8 bits
47537120.00ns INFO     cocotb.vga_driver.s_axi              Data width: 32 bits (4 bytes)
47537120.00ns INFO     cocotb.vga_driver.s_axi            AXI lite master signals:
47537120.00ns INFO     cocotb.vga_driver.s_axi              awaddr width: 32 bits
47537120.00ns INFO     cocotb.vga_driver.s_axi              awprot: not present
47537120.00ns INFO     cocotb.vga_driver.s_axi              awready width: 1 bits
47537120.00ns INFO     cocotb.vga_driver.s_axi              awvalid width: 1 bits
47537120.00ns INFO     cocotb.vga_driver.s_axi              wdata width: 32 bits
47537120.00ns INFO     cocotb.vga_driver.s_axi              wready width: 1 bits
47537120.00ns INFO     cocotb.vga_driver.s_axi              wstrb width: 4 bits
47537120.00ns INFO     cocotb.vga_driver.s_axi              wvalid width: 1 bits
47537120.00ns INFO     cocotb.vga_driver.s_axi              bready width: 1 bits
47537120.00ns INFO     cocotb.vga_driver.s_axi              bresp width: 2 bits
47537120.00ns INFO     cocotb.vga_driver.s_axi              bvalid width: 1 bits
47537120.00ns INFO     cocotb.vga_driver.s_axi            Reset de-asserted
47537120.00ns INFO     cocotb.vga_driver.s_axi            AXI lite master (read)
47537120.00ns INFO     cocotb.vga_driver.s_axi            cocotbext-axi version 0.1.24
47537120.00ns INFO     cocotb.vga_driver.s_axi            Copyright (c) 2020 Alex Forencich
47537120.00ns INFO     cocotb.vga_driver.s_axi            https://github.com/alexforencich/cocotbext-axi
47537120.00ns INFO     cocotb.vga_driver.s_axi            Reset de-asserted
47537120.00ns INFO     cocotb.vga_driver.s_axi            Reset de-asserted
47537120.00ns INFO     cocotb.vga_driver.s_axi            AXI lite master configuration:
47537120.00ns INFO     cocotb.vga_driver.s_axi              Address width: 32 bits
47537120.00ns INFO     cocotb.vga_driver.s_axi              Byte size: 8 bits
47537120.00ns INFO     cocotb.vga_driver.s_axi              Data width: 32 bits (4 bytes)
47537120.00ns INFO     cocotb.vga_driver.s_axi            AXI lite master signals:
47537120.00ns INFO     cocotb.vga_driver.s_axi              araddr width: 32 bits
47537120.00ns INFO     cocotb.vga_driver.s_axi              arprot: not present
47537120.00ns INFO     cocotb.vga_driver.s_axi              arready width: 1 bits
47537120.00ns INFO     cocotb.vga_driver.s_axi              arvalid width: 1 bits
47537120.00ns INFO     cocotb.vga_driver.s_axi              rdata width: 32 bits
47537120.00ns INFO     cocotb.vga_driver.s_axi              rready width: 1 bits
47537120.00ns INFO     cocotb.vga_driver.s_axi              rresp width: 2 bits
47537120.00ns INFO     cocotb.vga_driver.s_axi              rvalid width: 1 bits
47537120.00ns INFO     cocotb.vga_driver.s_axi            Reset de-asserted
47537120.00ns INFO     cocotb.vga_driver.s_axi            Reset asserted
47537120.00ns INFO     cocotb.vga_driver.s_axi            Reset asserted
47537120.00ns INFO     cocotb.vga_driver.s_axi            Reset asserted
47537120.00ns INFO     cocotb.vga_driver.s_axi            Reset asserted
47537120.00ns INFO     cocotb.vga_driver.s_axi            Reset asserted
47537120.00ns INFO     cocotb.vga_driver.s_axi            Reset asserted
47537120.00ns INFO     cocotb.vga_driver.s_axi            Reset asserted
47537240.00ns INFO     cocotb.vga_driver.s_axi            Reset de-asserted
47537240.00ns INFO     cocotb.vga_driver.s_axi            Reset de-asserted
47537240.00ns INFO     cocotb.vga_driver.s_axi            Reset de-asserted
47537240.00ns INFO     cocotb.vga_driver.s_axi            Reset de-asserted
47537240.00ns INFO     cocotb.vga_driver.s_axi            Reset de-asserted
47537240.00ns INFO     cocotb.vga_driver.s_axi            Reset de-asserted
47537240.00ns INFO     cocotb.vga_driver.s_axi            Reset de-asserted
47537340.00ns INFO     cocotb.vga_driver.s_axi            Write start addr: 0x11012c00 prot: 2 data: 5a
47537365.00ns INFO     cocotb.vga_driver.s_axi            Write complete addr: 0x11012c00 prot: 2 resp: 0 length: 1
47537520.00ns INFO     cocotb.vga_driver.s_axi            Write start addr: 0x11012c01 prot: 2 data: 5a
47537547.00ns INFO     cocotb.vga_driver.s_axi            Write complete addr: 0x11012c01 prot: 2 resp: 0 length: 1
47537920.01ns INFO     cocotb.regression                  test_csr_write_req passed
47537920.01ns INFO     cocotb.regression                  running test_fill_write_req (6/8)
47537920.01ns INFO     cocotb.vga_driver.s_axi            AXI lite master (write)
47537920.01ns INFO     cocotb.vga_driver.s_axi            cocotbext-axi version 0.1.24
47537920.01ns INFO     cocotb.vga_driver.s_axi            Copyright (c) 2020 Alex Forencich
47537920.01ns INFO     cocotb.vga_driver.s_axi            https://github.com/alexforencich/cocotbext-axi
47537920.01ns INFO     cocotb.vga_driver.s_axi            Reset de-asserted
47537920.01ns INFO     cocotb.vga_driver.s_axi            Reset de-asserted
47537920.01ns INFO     cocotb.vga_driver.s_axi            Reset de-asserted
47537920.01ns INFO     cocotb.vga_driver.s_axi            AXI lite master configuration:
47537920.01ns INFO     cocotb.vga_driver.s_axi              Address width: 32 bits
47537920.01ns INFO     cocotb.vga_driver.s_axi              Byte size: 8 bits
47537920.01ns INFO     cocotb.vga_driver.s_axi              Data width: 32 bits (4 bytes)
47537920.01ns INFO     cocotb.vga_driver.s_axi            AXI lite master signals:
47537920.01ns INFO     cocotb.vga_driver.s_axi              awaddr width: 32 bits
47537920.01ns INFO     cocotb.vga_driver.s_axi              awprot: not present
47537920.01ns INFO     cocotb.vga_driver.s_axi              awready width: 1 bits
47537920.01ns INFO     cocotb.vga_driver.s_axi              awvalid width: 1 bits
47537920.01ns INFO     cocotb.vga_driver.s_axi              wdata width: 32 bits
47537920.01ns INFO     cocotb.vga_driver.s_axi              wready width: 1 bits
47537920.01ns INFO     cocotb.vga_driver.s_axi              wstrb width: 4 bits
47537920.01ns INFO     cocotb.vga_driver.s_axi              wvalid width: 1 bits
47537920.01ns INFO     cocotb.vga_driver.s_axi              bready width: 1 bits
47537920.01ns INFO     cocotb.vga_driver.s_axi              bresp width: 2 bits
47537920.01ns INFO     cocotb.vga_driver.s_axi              bvalid width: 1 bits
47537920.01ns INFO     cocotb.vga_driver.s_axi            Reset de-asserted
47537920.01ns INFO     cocotb.vga_driver.s_axi            AXI lite master (read)
47537920.01ns INFO     cocotb.vga_driver.s_axi            cocotbext-axi version 0.1.24
47537920.01ns INFO     cocotb.vga_driver.s_axi            Copyright (c) 2020 Alex Forencich
47537920.01ns INFO     cocotb.vga_driver.s_axi            https://github.com/alexforencich/cocotbext-axi
47537920.01ns INFO     cocotb.vga_driver.s_axi            Reset de-asserted
47537920.01ns INFO     cocotb.vga_driver.s_axi            Reset de-asserted
47537920.01ns INFO     cocotb.vga_driver.s_axi            AXI lite master configuration:
47537920.01ns INFO     cocotb.vga_driver.s_axi              Address width: 32 bits
47537920.01ns INFO     cocotb.vga_driver.s_axi              Byte size: 8 bits
47537920.01ns INFO     cocotb.vga_driver.s_axi              Data width: 32 bits (4 bytes)
47537920.01ns INFO     cocotb.vga_driver.s_axi            AXI lite master signals:
47537920.01ns INFO     cocotb.vga_driver.s_axi              araddr width: 32 bits
47537920.01ns INFO     cocotb.vga_driver.s_axi              arprot: not present
47537920.01ns INFO     cocotb.vga_driver.s_axi              arready width: 1 bits
47537920.01ns INFO     cocotb.vga_driver.s_axi              arvalid width: 1 bits
47537920.01ns INFO     cocotb.vga_driver.s_axi              rdata width: 32 bits
47537920.01ns INFO     cocotb.vga_driver.s_axi              rready width: 1 bits
47537920.01ns INFO     cocotb.vga_driver.s_axi              rresp width: 2 bits
47537920.01ns INFO     cocotb.vga_driver.s_axi              rvalid width: 1 bits
47537920.01ns INFO     cocotb.vga_driver.s_axi            Reset de-asserted
47537920.01ns INFO     cocotb.vga_driver.s_axi            Reset asserted
47537920.01ns INFO     cocotb.vga_driver.s_axi            Reset asserted
47537920.01ns INFO     cocotb.vga_driver.s_axi            Reset asserted
47537920.01ns INFO     cocotb.vga_driver.s_axi            Reset asserted
47537920.01ns INFO     cocotb.vga_driver.s_axi            Reset asserted
47537920.01ns INFO     cocotb.vga_driver.s_axi            Reset asserted
47537920.01ns INFO     cocotb.vga_driver.s_axi            Reset asserted
47538040.01ns INFO     cocotb.vga_driver.s_axi            Reset de-asserted
47538040.01ns INFO     cocotb.vga_driver.s_axi            Reset de-asserted
47538040.01ns INFO     cocotb.vga_driver.s_axi            Reset de-asserted
47538040.01ns INFO     cocotb.vga_driver.s_axi            Reset de-asserted
47538040.01ns INFO     cocotb.vga_driver.s_axi            Reset de-asserted
47538040.01ns INFO     cocotb.vga_driver.s_axi            Reset de-asserted
47538040.01ns INFO     cocotb.vga_driver.s_axi            Reset de-asserted
47538140.01ns INFO     cocotb.vga_driver.s_axi            Write start addr: 0x11000000 prot: 2 data: 00
47538165.01ns INFO     cocotb.vga_driver.s_axi            Write complete addr: 0x11000000 prot: 2 resp: 0 length: 1
47538165.01ns INFO     cocotb.vga_driver.s_axi            Write start addr: 0x11000001 prot: 2 data: 01
47538193.01ns INFO     cocotb.vga_driver.s_axi            Write complete addr: 0x11000001 prot: 2 resp: 0 length: 1
47538193.01ns INFO     cocotb.vga_driver.s_axi            Write start addr: 0x11000002 prot: 2 data: 02
47538221.01ns INFO     cocotb.vga_driver.s_axi            Write complete addr: 0x11000002 prot: 2 resp: 0 length: 1
47538221.01ns INFO     cocotb.vga_driver.s_axi            Write start addr: 0x11000003 prot: 2 data: 03
47538249.01ns INFO     cocotb.vga_driver.s_axi            Write complete addr: 0x11000003 prot: 2 resp: 0 length: 1
47538249.01ns INFO     cocotb.vga_driver.s_axi            Write start addr: 0x11000004 prot: 2 data: 04
47538277.01ns INFO     cocotb.vga_driver.s_axi            Write complete addr: 0x11000004 prot: 2 resp: 0 length: 1
47538277.01ns INFO     cocotb.vga_driver.s_axi            Write start addr: 0x11000005 prot: 2 data: 05
47538305.01ns INFO     cocotb.vga_driver.s_axi            Write complete addr: 0x11000005 prot: 2 resp: 0 length: 1
47538305.01ns INFO     cocotb.vga_driver.s_axi            Write start addr: 0x11000006 prot: 2 data: 06
47538333.01ns INFO     cocotb.vga_driver.s_axi            Write complete addr: 0x11000006 prot: 2 resp: 0 length: 1
47538333.01ns INFO     cocotb.vga_driver.s_axi            Write start addr: 0x11000007 prot: 2 data: 07
47538361.01ns INFO     cocotb.vga_driver.s_axi            Write complete addr: 0x11000007 prot: 2 resp: 0 length: 1
47538361.01ns INFO     cocotb.vga_driver.s_axi            Write start addr: 0x11000008 prot: 2 data: 08
47538389.01ns INFO     cocotb.vga_driver.s_axi            Write complete addr: 0x11000008 prot: 2 resp: 0 length: 1
47538389.01ns INFO     cocotb.vga_driver.s_axi            Write start addr: 0x11000009 prot: 2 data: 09
47538417.01ns INFO     cocotb.vga_driver.s_axi            Write complete addr: 0x11000009 prot: 2 resp: 0 length: 1
47538417.01ns INFO     cocotb.vga_driver.s_axi            Write start addr: 0x1100000a prot: 2 data: 0a
47538445.01ns INFO     cocotb.vga_driver.s_axi            Write complete addr: 0x1100000a prot: 2 resp: 0 length: 1
47538445.01ns INFO     cocotb.vga_driver.s_axi            Write start addr: 0x1100000b prot: 2 data: 0b
47538473.01ns INFO     cocotb.vga_driver.s_axi            Write complete addr: 0x1100000b prot: 2 resp: 0 length: 1
47538473.01ns INFO     cocotb.vga_driver.s_axi            Write start addr: 0x1100000c prot: 2 data: 0c
47538501.01ns INFO     cocotb.vga_driver.s_axi            Write complete addr: 0x1100000c prot: 2 resp: 0 length: 1
47538501.01ns INFO     cocotb.vga_driver.s_axi            Write start addr: 0x1100000d prot: 2 data: 0d
47538529.01ns INFO     cocotb.vga_driver.s_axi            Write complete addr: 0x1100000d prot: 2 resp: 0 length: 1
47538529.01ns INFO     cocotb.vga_driver.s_axi            Write start addr: 0x1100000e prot: 2 data: 0e
47538557.01ns INFO     cocotb.vga_driver.s_axi            Write complete addr: 0x1100000e prot: 2 resp: 0 length: 1
47538557.01ns INFO     cocotb.vga_driver.s_axi            Write start addr: 0x1100000f prot: 2 data: 0f
47538585.01ns INFO     cocotb.vga_driver.s_axi            Write complete addr: 0x1100000f prot: 2 resp: 0 length: 1
47538585.01ns INFO     cocotb.vga_driver.s_axi            Write start addr: 0x11000010 prot: 2 data: 10
47538613.01ns INFO     cocotb.vga_driver.s_axi            Write complete addr: 0x11000010 prot: 2 resp: 0 length: 1
47538613.01ns INFO     cocotb.vga_driver.s_axi            Write start addr: 0x11000011 prot: 2 data: 11
47538669.01ns INFO     cocotb.vga_driver.s_axi            Write complete addr: 0x11000011 prot: 2 resp: 0 length: 1
47544720.01ns INFO     cocotb.regression                  test_fill_write_req passed
47544720.01ns INFO     cocotb.regression                  running test_fb_read_req (7/8)
47544720.01ns INFO     cocotb.vga_driver.s_axi            AXI lite master (write)
47544720.01ns INFO     cocotb.vga_driver.s_axi            cocotbext-axi version 0.1.24
47544720.01ns INFO     cocotb.vga_driver.s_axi            Copyright (c) 2020 Alex Forencich
47544720.01ns INFO     cocotb.vga_driver.s_axi            https://github.com/alexforencich/cocotbext-axi
47544720.01ns INFO     cocotb.vga_driver.s_axi            Reset de-asserted
47544720.01ns INFO     cocotb.vga_driver.s_axi            Reset de-asserted
47544720.01ns INFO     cocotb.vga_driver.s_axi            Reset de-asserted
47544720.01ns INFO     cocotb.vga_driver.s_axi            AXI lite master configuration:
47544720.01ns INFO     cocotb.vga_driver.s_axi              Address width: 32 bits
47544720.01ns INFO     cocotb.vga_driver.s_axi              Byte size: 8 bits
47544720.01ns INFO     cocotb.vga_driver.s_axi              Data width: 32 bits (4 bytes)
47544720.01ns INFO     cocotb.vga_driver.s_axi            AXI lite master signals:
47544720.01ns INFO     cocotb.vga_driver.s_axi              awaddr width: 32 bits
47544720.01ns INFO     cocotb.vga_driver.s_axi              awprot: not present
47544720.01ns INFO     cocotb.vga_driver.s_axi              awready width: 1 bits
47544720.01ns INFO     cocotb.vga_driver.s_axi              awvalid width: 1 bits
47544720.01ns INFO     cocotb.vga_driver.s_axi              wdata width: 32 bits
47544720.01ns INFO     cocotb.vga_driver.s_axi              wready width: 1 bits
47544720.01ns INFO     cocotb.vga_driver.s_axi              wstrb width: 4 bits
47544720.01ns INFO     cocotb.vga_driver.s_axi              wvalid width: 1 bits
47544720.01ns INFO     cocotb.vga_driver.s_axi              bready width: 1 bits
47544720.01ns INFO     cocotb.vga_driver.s_axi              bresp width: 2 bits
47544720.01ns INFO     cocotb.vga_driver.s_axi              bvalid width: 1 bits
47544720.01ns INFO     cocotb.vga_driver.s_axi            Reset de-asserted
47544720.01ns INFO     cocotb.vga_driver.s_axi            AXI lite master (read)
47544720.01ns INFO     cocotb.vga_driver.s_axi            cocotbext-axi version 0.1.24
47544720.01ns INFO     cocotb.vga_driver.s_axi            Copyright (c) 2020 Alex Forencich
47544720.01ns INFO     cocotb.vga_driver.s_axi            https://github.com/alexforencich/cocotbext-axi
47544720.01ns INFO     cocotb.vga_driver.s_axi            Reset de-asserted
47544720.01ns INFO     cocotb.vga_driver.s_axi            Reset de-asserted
47544720.01ns INFO     cocotb.vga_driver.s_axi            AXI lite master configuration:
47544720.01ns INFO     cocotb.vga_driver.s_axi              Address width: 32 bits
47544720.01ns INFO     cocotb.vga_driver.s_axi              Byte size: 8 bits
47544720.01ns INFO     cocotb.vga_driver.s_axi              Data width: 32 bits (4 bytes)
47544720.01ns INFO     cocotb.vga_driver.s_axi            AXI lite master signals:
47544720.01ns INFO     cocotb.vga_driver.s_axi              araddr width: 32 bits
47544720.01ns INFO     cocotb.vga_driver.s_axi              arprot: not present
47544720.01ns INFO     cocotb.vga_driver.s_axi              arready width: 1 bits
47544720.01ns INFO     cocotb.vga_driver.s_axi              arvalid width: 1 bits
47544720.01ns INFO     cocotb.vga_driver.s_axi              rdata width: 32 bits
47544720.01ns INFO     cocotb.vga_driver.s_axi              rready width: 1 bits
47544720.01ns INFO     cocotb.vga_driver.s_axi              rresp width: 2 bits
47544720.01ns INFO     cocotb.vga_driver.s_axi              rvalid width: 1 bits
47544720.01ns INFO     cocotb.vga_driver.s_axi            Reset de-asserted
47544720.01ns INFO     cocotb.vga_driver.s_axi            Reset asserted
47544720.01ns INFO     cocotb.vga_driver.s_axi            Reset asserted
47544720.01ns INFO     cocotb.vga_driver.s_axi            Reset asserted
47544720.01ns INFO     cocotb.vga_driver.s_axi            Reset asserted
47544720.01ns INFO     cocotb.vga_driver.s_axi            Reset asserted
47544720.01ns INFO     cocotb.vga_driver.s_axi            Reset asserted
47544720.01ns INFO     cocotb.vga_driver.s_axi            Reset asserted
47544840.01ns INFO     cocotb.vga_driver.s_axi            Reset de-asserted
47544840.01ns INFO     cocotb.vga_driver.s_axi            Reset de-asserted
47544840.01ns INFO     cocotb.vga_driver.s_axi            Reset de-asserted
47544840.01ns INFO     cocotb.vga_driver.s_axi            Reset de-asserted
47544840.01ns INFO     cocotb.vga_driver.s_axi            Reset de-asserted
47544840.01ns INFO     cocotb.vga_driver.s_axi            Reset de-asserted
47544840.01ns INFO     cocotb.vga_driver.s_axi            Reset de-asserted
47544940.01ns INFO     cocotb.vga_driver.s_axi            Read start addr: 0x11000004 prot: 2 length: 1
47545434.01ns INFO     cocotb.vga_driver.s_axi            Read complete addr: 0x11000004 prot: 2 resp: 0 data: aa
DATA BUTES b'\xaa'
47545800.01ns INFO     cocotb.regression                  test_fb_read_req passed
47545800.01ns INFO     cocotb.regression                  running test_csr_read_req (8/8)
47545800.01ns INFO     cocotb.vga_driver.s_axi            AXI lite master (write)
47545800.01ns INFO     cocotb.vga_driver.s_axi            cocotbext-axi version 0.1.24
47545800.01ns INFO     cocotb.vga_driver.s_axi            Copyright (c) 2020 Alex Forencich
47545800.01ns INFO     cocotb.vga_driver.s_axi            https://github.com/alexforencich/cocotbext-axi
47545800.01ns INFO     cocotb.vga_driver.s_axi            Reset de-asserted
47545800.01ns INFO     cocotb.vga_driver.s_axi            Reset de-asserted
47545800.01ns INFO     cocotb.vga_driver.s_axi            Reset de-asserted
47545800.01ns INFO     cocotb.vga_driver.s_axi            AXI lite master configuration:
47545800.01ns INFO     cocotb.vga_driver.s_axi              Address width: 32 bits
47545800.01ns INFO     cocotb.vga_driver.s_axi              Byte size: 8 bits
47545800.01ns INFO     cocotb.vga_driver.s_axi              Data width: 32 bits (4 bytes)
47545800.01ns INFO     cocotb.vga_driver.s_axi            AXI lite master signals:
47545800.01ns INFO     cocotb.vga_driver.s_axi              awaddr width: 32 bits
47545800.01ns INFO     cocotb.vga_driver.s_axi              awprot: not present
47545800.01ns INFO     cocotb.vga_driver.s_axi              awready width: 1 bits
47545800.01ns INFO     cocotb.vga_driver.s_axi              awvalid width: 1 bits
47545800.01ns INFO     cocotb.vga_driver.s_axi              wdata width: 32 bits
47545800.01ns INFO     cocotb.vga_driver.s_axi              wready width: 1 bits
47545800.01ns INFO     cocotb.vga_driver.s_axi              wstrb width: 4 bits
47545800.01ns INFO     cocotb.vga_driver.s_axi              wvalid width: 1 bits
47545800.01ns INFO     cocotb.vga_driver.s_axi              bready width: 1 bits
47545800.01ns INFO     cocotb.vga_driver.s_axi              bresp width: 2 bits
47545800.01ns INFO     cocotb.vga_driver.s_axi              bvalid width: 1 bits
47545800.01ns INFO     cocotb.vga_driver.s_axi            Reset de-asserted
47545800.01ns INFO     cocotb.vga_driver.s_axi            AXI lite master (read)
47545800.01ns INFO     cocotb.vga_driver.s_axi            cocotbext-axi version 0.1.24
47545800.01ns INFO     cocotb.vga_driver.s_axi            Copyright (c) 2020 Alex Forencich
47545800.01ns INFO     cocotb.vga_driver.s_axi            https://github.com/alexforencich/cocotbext-axi
47545800.01ns INFO     cocotb.vga_driver.s_axi            Reset de-asserted
47545800.01ns INFO     cocotb.vga_driver.s_axi            Reset de-asserted
47545800.01ns INFO     cocotb.vga_driver.s_axi            AXI lite master configuration:
47545800.01ns INFO     cocotb.vga_driver.s_axi              Address width: 32 bits
47545800.01ns INFO     cocotb.vga_driver.s_axi              Byte size: 8 bits
47545800.01ns INFO     cocotb.vga_driver.s_axi              Data width: 32 bits (4 bytes)
47545800.01ns INFO     cocotb.vga_driver.s_axi            AXI lite master signals:
47545800.01ns INFO     cocotb.vga_driver.s_axi              araddr width: 32 bits
47545800.01ns INFO     cocotb.vga_driver.s_axi              arprot: not present
47545800.01ns INFO     cocotb.vga_driver.s_axi              arready width: 1 bits
47545800.01ns INFO     cocotb.vga_driver.s_axi              arvalid width: 1 bits
47545800.01ns INFO     cocotb.vga_driver.s_axi              rdata width: 32 bits
47545800.01ns INFO     cocotb.vga_driver.s_axi              rready width: 1 bits
47545800.01ns INFO     cocotb.vga_driver.s_axi              rresp width: 2 bits
47545800.01ns INFO     cocotb.vga_driver.s_axi              rvalid width: 1 bits
47545800.01ns INFO     cocotb.vga_driver.s_axi            Reset de-asserted
47545800.01ns INFO     cocotb.vga_driver.s_axi            Reset asserted
47545800.01ns INFO     cocotb.vga_driver.s_axi            Reset asserted
47545800.01ns INFO     cocotb.vga_driver.s_axi            Reset asserted
47545800.01ns INFO     cocotb.vga_driver.s_axi            Reset asserted
47545800.01ns INFO     cocotb.vga_driver.s_axi            Reset asserted
47545800.01ns INFO     cocotb.vga_driver.s_axi            Reset asserted
47545800.01ns INFO     cocotb.vga_driver.s_axi            Reset asserted
47545920.01ns INFO     cocotb.vga_driver.s_axi            Reset de-asserted
47545920.01ns INFO     cocotb.vga_driver.s_axi            Reset de-asserted
47545920.01ns INFO     cocotb.vga_driver.s_axi            Reset de-asserted
47545920.01ns INFO     cocotb.vga_driver.s_axi            Reset de-asserted
47545920.01ns INFO     cocotb.vga_driver.s_axi            Reset de-asserted
47545920.01ns INFO     cocotb.vga_driver.s_axi            Reset de-asserted
47545920.01ns INFO     cocotb.vga_driver.s_axi            Reset de-asserted
47546020.01ns INFO     cocotb.vga_driver.s_axi            Write start addr: 0x11012c00 prot: 2 data: 5a
47546045.01ns INFO     cocotb.vga_driver.s_axi            Write complete addr: 0x11012c00 prot: 2 resp: 0 length: 1
47546045.01ns INFO     cocotb.vga_driver.s_axi            Read start addr: 0x11012c00 prot: 2 length: 1
47546234.01ns INFO     cocotb.vga_driver.s_axi            Read complete addr: 0x11012c00 prot: 2 resp: 0 data: 5a
DATA BUTES b'Z'
47546234.01ns INFO     cocotb.vga_driver.s_axi            Read start addr: 0x11012c01 prot: 2 length: 1
47546430.01ns INFO     cocotb.vga_driver.s_axi            Read complete addr: 0x11012c01 prot: 2 resp: 0 data: ff
DATA BUTES b'\xff'
47546440.01ns INFO     cocotb.regression                  test_csr_read_req passed
47546440.01ns INFO     cocotb.regression                  *********************************************************************************************
                                                          ** TEST                                 STATUS  SIM TIME (ns)  REAL TIME (s)  RATIO (ns/s) **
                                                          *********************************************************************************************
                                                          ** test_vga_driver.test_prefetch_line    PASS    15376160.00         329.58      46653.53  **
                                                          ** test_vga_driver.test_correct_addr     PASS    16800180.00         355.27      47287.86  **
                                                          ** test_vga_driver.test_correct_lut      PASS    15360100.00         326.30      47074.24  **
                                                          ** test_vga_driver.test_fb_write_req     PASS         680.00           0.02      33417.27  **
                                                          ** test_vga_driver.test_csr_write_req    PASS         800.00           0.02      35245.56  **
                                                          ** test_vga_driver.test_fill_write_req   PASS        6800.00           0.17      41086.10  **
                                                          ** test_vga_driver.test_fb_read_req      PASS        1080.00           0.03      38986.60  **
                                                          ** test_vga_driver.test_csr_read_req     PASS         640.00           0.02      31975.30  **
                                                          *********************************************************************************************
                                                          ** TESTS=8 PASS=8 FAIL=0 SKIP=0                  47546440.01        1011.56      47002.85  **
                                                          *********************************************************************************************
                                                          
FST info: dumpfile sim_build/vga_driver.fst opened for output.
make[1]: Leaving directory '/home/asic/workspace/pcie_vga_asic/cocotests/test_vga_driver'
